T5A50 000:006.317   SEGGER J-Link V7.88i Log File
T5A50 000:006.416   DLL Compiled: Jun 21 2023 11:52:57
T5A50 000:006.420   Logging started @ 2023-09-11 16:01
T5A50 000:006.424 - 6.426ms
T5A50 000:006.433 JLINK_SetWarnOutHandler(...)
T5A50 000:006.439 - 0.007ms
T5A50 000:006.444 JLINK_OpenEx(...)
T5A50 000:009.452   Firmware: J-Link V9 compiled May  7 2021 16:26:12
T5A50 000:010.049   Firmware: J-Link V9 compiled May  7 2021 16:26:12
T5A50 000:010.386   Decompressing FW timestamp took 219 us
T5A50 000:018.881   Hardware: V9.60
T5A50 000:018.906   S/N: 69667849
T5A50 000:018.912   OEM: SEGGER
T5A50 000:018.919   Feature(s): RDI, GDB, FlashDL, FlashBP, JFlash
T5A50 000:020.268   Bootloader: (Could not read)
T5A50 000:021.784   TELNET listener socket opened on port 19021
T5A50 000:021.910   WEBSRV WEBSRV_Init(): Starting webserver thread(s)
T5A50 000:022.038   WEBSRV Webserver running on local port 19080
T5A50 000:022.142   Looking for J-Link GUI Server exe at: C:\Keil_v5\ARM\Segger\JLinkGUIServer.exe
T5A50 000:022.208   Looking for J-Link GUI Server exe at: C:\Program Files\SEGGER\JLink\JLinkGUIServer.exe
T5A50 000:022.235   Forking J-Link GUI Server: C:\Program Files\SEGGER\JLink\JLinkGUIServer.exe
T5A50 000:043.793   J-Link GUI Server info: "J-Link GUI server V7.88i "
T5A50 000:051.518 - 45.106ms returns "O.K."
T5A50 000:051.807 JLINK_GetEmuCaps()
T5A50 000:051.818 - 0.015ms returns 0xB9FF7BBF
T5A50 000:051.832 JLINK_TIF_GetAvailable(...)
T5A50 000:052.393 - 0.573ms
T5A50 000:052.415 JLINK_SetErrorOutHandler(...)
T5A50 000:052.424 - 0.013ms
T5A50 000:052.783 JLINK_ExecCommand("ProjectFile = "D:\VL53l0x\STM32G030__vl53l01\STM32G030__vl53l01\MDK-ARM\JLinkSettings.ini"", ...). 
T5A50 000:067.720   Ref file found at: C:\Keil_v5\ARM\Segger\JLinkDevices.ref
T5A50 000:067.780   REF file references invalid XML file: C:\Program Files\SEGGER\JLink\JLinkDevices.xml
T5A50 000:067.990 - 15.211ms returns 0x00
T5A50 000:071.663 JLINK_ExecCommand("Device = STM32G030C8Tx", ...). 
T5A50 000:073.752   Device "STM32G030C8" selected.
T5A50 000:074.065 - 2.385ms returns 0x00
T5A50 000:074.077 JLINK_ExecCommand("DisableConnectionTimeout", ...). 
T5A50 000:074.083 - 0.003ms returns 0x01
T5A50 000:074.088 JLINK_GetHardwareVersion()
T5A50 000:074.093 - 0.006ms returns 96000
T5A50 000:074.105 JLINK_GetDLLVersion()
T5A50 000:074.109 - 0.006ms returns 78809
T5A50 000:074.113 JLINK_GetOEMString(...)
T5A50 000:074.118 JLINK_GetFirmwareString(...)
T5A50 000:074.122 - 0.006ms
T5A50 000:077.870 JLINK_GetDLLVersion()
T5A50 000:077.885 - 0.017ms returns 78809
T5A50 000:077.891 JLINK_GetCompileDateTime()
T5A50 000:077.896 - 0.006ms
T5A50 000:083.103 JLINK_GetFirmwareString(...)
T5A50 000:083.130 - 0.030ms
T5A50 000:084.444 JLINK_GetHardwareVersion()
T5A50 000:084.460 - 0.018ms returns 96000
T5A50 000:085.612 JLINK_GetSN()
T5A50 000:085.624 - 0.014ms returns 69667849
T5A50 000:086.716 JLINK_GetOEMString(...)
T5A50 000:088.949 JLINK_TIF_Select(JLINKARM_TIF_SWD)
T5A50 000:090.740 - 1.817ms returns 0x00
T5A50 000:090.780 JLINK_HasError()
T5A50 000:090.792 JLINK_SetSpeed(5000)
T5A50 000:091.138 - 0.353ms
T5A50 000:091.150 JLINK_GetId()
T5A50 000:093.105   InitTarget() start
T5A50 000:093.119    J-Link Script File: Executing InitTarget()
T5A50 000:096.150   SWD selected. Executing JTAG -> SWD switching sequence.
T5A50 000:101.744   DAP initialized successfully.
T5A50 000:117.129   InitTarget() end - Took 22.5ms
T5A50 000:119.424   Found SW-DP with ID 0x0BC11477
T5A50 000:124.557   DPIDR: 0x0BC11477
T5A50 000:125.688   CoreSight SoC-400 or earlier
T5A50 000:126.783   Scanning AP map to find all available APs
T5A50 000:129.194   AP[1]: Stopped AP scan as end of AP map has been reached
T5A50 000:133.020   AP[0]: AHB-AP (IDR: 0x04770031)
T5A50 000:135.049   Iterating through AP map to find AHB-AP to use
T5A50 000:137.915   AP[0]: Core found
T5A50 000:139.245   AP[0]: AHB-AP ROM base: 0xF0000000
T5A50 000:141.042   CPUID register: 0x410CC601. Implementer code: 0x41 (ARM)
T5A50 000:142.405   Found Cortex-M0 r0p1, Little endian.
T5A50 000:143.427   -- Max. mem block: 0x00010C40
T5A50 000:144.349   CPU_ReadMem(4 bytes @ 0xE000EDF0)
T5A50 000:144.841   CPU_ReadMem(4 bytes @ 0xE0002000)
T5A50 000:146.930   FPUnit: 4 code (BP) slots and 0 literal slots
T5A50 000:146.957   CPU_ReadMem(4 bytes @ 0xE000EDFC)
T5A50 000:147.490   CPU_WriteMem(4 bytes @ 0xE000EDFC)
T5A50 000:148.025   CPU_ReadMem(4 bytes @ 0xE0001000)
T5A50 000:148.580   CPU_WriteMem(4 bytes @ 0xE0001000)
T5A50 000:150.923   CoreSight components:
T5A50 000:152.385   ROMTbl[0] @ F0000000
T5A50 000:152.402   CPU_ReadMem(64 bytes @ 0xF0000000)
T5A50 000:153.175   CPU_ReadMem(32 bytes @ 0xE00FFFE0)
T5A50 000:154.983   [0][0]: E00FF000 CID B105100D PID 000BB4C0 ROM Table
T5A50 000:156.461   ROMTbl[1] @ E00FF000
T5A50 000:156.476   CPU_ReadMem(64 bytes @ 0xE00FF000)
T5A50 000:157.221   CPU_ReadMem(32 bytes @ 0xE000EFE0)
T5A50 000:159.037   [1][0]: E000E000 CID B105E00D PID 000BB008 SCS
T5A50 000:159.051   CPU_ReadMem(32 bytes @ 0xE0001FE0)
T5A50 000:160.887   [1][1]: E0001000 CID B105E00D PID 000BB00A DWT
T5A50 000:160.900   CPU_ReadMem(32 bytes @ 0xE0002FE0)
T5A50 000:162.888   [1][2]: E0002000 CID B105E00D PID 000BB00B FPB
T5A50 000:163.587 - 72.458ms returns 0x0BC11477
T5A50 000:163.619 JLINK_GetDLLVersion()
T5A50 000:163.624 - 0.006ms returns 78809
T5A50 000:163.665 JLINK_CORE_GetFound()
T5A50 000:163.671 - 0.008ms returns 0x60000FF
T5A50 000:163.692 JLINK_GetDebugInfo(0x100 = JLINKARM_ROM_TABLE_ADDR_INDEX)
T5A50 000:163.700   Value=0xF0000000
T5A50 000:163.706 - 0.017ms returns 0
T5A50 000:168.261 JLINK_GetDebugInfo(0x100 = JLINKARM_ROM_TABLE_ADDR_INDEX)
T5A50 000:168.290   Value=0xF0000000
T5A50 000:168.296 - 0.037ms returns 0
T5A50 000:168.301 JLINK_GetDebugInfo(0x101 = JLINKARM_DEBUG_INFO_ETM_ADDR_INDEX)
T5A50 000:168.305   Value=0x00000000
T5A50 000:168.311 - 0.012ms returns 0
T5A50 000:168.316 JLINK_ReadMemEx(0xE0041FF0, 0x10 Bytes, Flags = 0x02000004)
T5A50 000:168.347   CPU_ReadMem(16 bytes @ 0xE0041FF0)
T5A50 000:168.916   Data:  00 00 00 00 00 00 00 00 00 00 00 00 00 00 00 00
T5A50 000:168.926 - 0.612ms returns 16 (0x10)
T5A50 000:168.933 JLINK_GetDebugInfo(0x102 = JLINKARM_DEBUG_INFO_MTB_ADDR_INDEX)
T5A50 000:168.937   Value=0x00000000
T5A50 000:168.943 - 0.012ms returns 0
T5A50 000:168.948 JLINK_GetDebugInfo(0x103 = JLINKARM_DEBUG_INFO_TPIU_ADDR_INDEX)
T5A50 000:168.952   Value=0x00000000
T5A50 000:168.958 - 0.012ms returns 0
T5A50 000:168.962 JLINK_ReadMemEx(0xE0040FF0, 0x10 Bytes, Flags = 0x02000004)
T5A50 000:168.970   CPU_ReadMem(16 bytes @ 0xE0040FF0)
T5A50 000:169.491   Data:  00 00 00 00 00 00 00 00 00 00 00 00 00 00 00 00
T5A50 000:169.498 - 0.537ms returns 16 (0x10)
T5A50 000:169.504 JLINK_GetDebugInfo(0x104 = JLINKARM_DEBUG_INFO_ITM_ADDR_INDEX)
T5A50 000:169.508   Value=0xE0000000
T5A50 000:169.514 - 0.012ms returns 0
T5A50 000:169.519 JLINK_GetDebugInfo(0x105 = JLINKARM_DEBUG_INFO_DWT_ADDR_INDEX)
T5A50 000:169.523   Value=0xE0001000
T5A50 000:169.529 - 0.012ms returns 0
T5A50 000:169.534 JLINK_GetDebugInfo(0x106 = JLINKARM_DEBUG_INFO_FPB_ADDR_INDEX)
T5A50 000:169.538   Value=0xE0002000
T5A50 000:169.544 - 0.012ms returns 0
T5A50 000:169.548 JLINK_GetDebugInfo(0x107 = JLINKARM_DEBUG_INFO_NVIC_ADDR_INDEX)
T5A50 000:169.553   Value=0xE000E000
T5A50 000:169.559 - 0.012ms returns 0
T5A50 000:169.563 JLINK_GetDebugInfo(0x10C = JLINKARM_DEBUG_INFO_DBG_ADDR_INDEX)
T5A50 000:169.568   Value=0xE000EDF0
T5A50 000:169.573 - 0.011ms returns 0
T5A50 000:169.578 JLINK_GetDebugInfo(0x01 = Unknown)
T5A50 000:169.585   Value=0x00000000
T5A50 000:169.591 - 0.015ms returns 0
T5A50 000:169.596 JLINK_ReadMemU32(0xE000ED00, 0x1 Items)
T5A50 000:169.602   CPU_ReadMem(4 bytes @ 0xE000ED00)
T5A50 000:170.092   Data:  01 C6 0C 41
T5A50 000:170.099   Debug reg: CPUID
T5A50 000:170.104 - 0.510ms returns 1 (0x1)
T5A50 000:170.110 JLINK_GetDebugInfo(0x10F = JLINKARM_DEBUG_INFO_HAS_CORTEX_M_SECURITY_EXT_INDEX)
T5A50 000:170.114   Value=0x00000000
T5A50 000:170.120 - 0.012ms returns 0
T5A50 000:170.125 JLINK_HasError()
T5A50 000:170.134 JLINK_SetResetType(JLINKARM_CM3_RESET_TYPE_NORMAL)
T5A50 000:170.138 - 0.006ms returns JLINKARM_CM3_RESET_TYPE_NORMAL
T5A50 000:170.143 JLINK_Reset()
T5A50 000:170.319   CPU is running
T5A50 000:170.327   CPU_WriteMem(4 bytes @ 0xE000EDF0)
T5A50 000:170.849   CPU is running
T5A50 000:170.876   CPU_WriteMem(4 bytes @ 0xE000EDFC)
T5A50 000:172.735   Reset: Halt core after reset via DEMCR.VC_CORERESET.
T5A50 000:174.858   Reset: Reset device via AIRCR.SYSRESETREQ.
T5A50 000:174.873   CPU is running
T5A50 000:174.881   CPU_WriteMem(4 bytes @ 0xE000ED0C)
T5A50 000:229.054   CPU_ReadMem(4 bytes @ 0xE000EDF0)
T5A50 000:229.747   CPU_ReadMem(4 bytes @ 0xE000EDF0)
T5A50 000:233.144   CPU_WriteMem(4 bytes @ 0xE000EDFC)
T5A50 000:238.975   CPU_ReadMem(4 bytes @ 0xE000EDF0)
T5A50 000:241.811   CPU_WriteMem(4 bytes @ 0xE0002000)
T5A50 000:242.323   CPU_ReadMem(4 bytes @ 0xE000EDFC)
T5A50 000:242.852   CPU_ReadMem(4 bytes @ 0xE0001000)
T5A50 000:243.374   CPU_WriteMem(4 bytes @ 0xE0001000)
T5A50 000:243.882 - 73.742ms
T5A50 000:243.892 JLINK_Halt()
T5A50 000:243.896 - 0.010ms returns 0x00
T5A50 000:243.909 JLINK_ReadMemU32(0xE000EDF0, 0x1 Items)
T5A50 000:243.918   CPU_ReadMem(4 bytes @ 0xE000EDF0)
T5A50 000:244.429   Data:  03 00 03 00
T5A50 000:244.446   Debug reg: DHCSR
T5A50 000:244.452 - 0.545ms returns 1 (0x1)
T5A50 000:244.461 JLINK_WriteU32_64(0xE000EDF0, 0xA05F0003)
T5A50 000:244.469   Debug reg: DHCSR
T5A50 000:244.653   CPU_WriteMem(4 bytes @ 0xE000EDF0)
T5A50 000:245.171 - 0.718ms returns 0 (0x00000000)
T5A50 000:245.186 JLINK_WriteU32_64(0xE000EDFC, 0x01000000)
T5A50 000:245.191   Debug reg: DEMCR
T5A50 000:245.201   CPU_WriteMem(4 bytes @ 0xE000EDFC)
T5A50 000:245.728 - 0.551ms returns 0 (0x00000000)
T5A50 000:253.160 JLINK_GetHWStatus(...)
T5A50 000:253.601 - 0.444ms returns 0
T5A50 000:257.126 JLINK_GetNumBPUnits(Type = 0xFFFFFF00)
T5A50 000:257.144 - 0.020ms returns 0x04
T5A50 000:257.150 JLINK_GetNumBPUnits(Type = 0xF0)
T5A50 000:257.154 - 0.006ms returns 0x2000
T5A50 000:257.159 JLINK_GetNumWPUnits()
T5A50 000:257.163 - 0.006ms returns 2
T5A50 000:262.089 JLINK_GetSpeed()
T5A50 000:262.109 - 0.022ms returns 4000
T5A50 000:266.381 JLINK_ReadMemU32(0xE000E004, 0x1 Items)
T5A50 000:266.415   CPU_ReadMem(4 bytes @ 0xE000E004)
T5A50 000:266.952   Data:  00 00 00 00
T5A50 000:266.969 - 0.590ms returns 1 (0x1)
T5A50 000:266.979 JLINK_Halt()
T5A50 000:266.984 - 0.006ms returns 0x00
T5A50 000:266.989 JLINK_IsHalted()
T5A50 000:266.995 - 0.008ms returns TRUE
T5A50 000:269.102 JLINK_WriteMem(0x20000000, 0x218 Bytes, ...)
T5A50 000:269.111   Data:  00 BE 0A E0 0D 78 2D 06 68 40 08 24 40 00 00 D3 ...
T5A50 000:269.266   CPU_WriteMem(536 bytes @ 0x20000000)
T5A50 000:271.630 - 2.537ms returns 0x218
T5A50 000:271.692 JLINK_HasError()
T5A50 000:271.699 JLINK_WriteReg(R0, 0x08000000)
T5A50 000:271.705 - 0.008ms returns 0
T5A50 000:271.710 JLINK_WriteReg(R1, 0x007A1200)
T5A50 000:271.715 - 0.006ms returns 0
T5A50 000:271.719 JLINK_WriteReg(R2, 0x00000001)
T5A50 000:271.724 - 0.006ms returns 0
T5A50 000:271.728 JLINK_WriteReg(R3, 0x00000000)
T5A50 000:271.732 - 0.006ms returns 0
T5A50 000:271.737 JLINK_WriteReg(R4, 0x00000000)
T5A50 000:271.741 - 0.006ms returns 0
T5A50 000:271.746 JLINK_WriteReg(R5, 0x00000000)
T5A50 000:271.750 - 0.006ms returns 0
T5A50 000:271.754 JLINK_WriteReg(R6, 0x00000000)
T5A50 000:271.758 - 0.006ms returns 0
T5A50 000:271.763 JLINK_WriteReg(R7, 0x00000000)
T5A50 000:271.767 - 0.006ms returns 0
T5A50 000:271.772 JLINK_WriteReg(R8, 0x00000000)
T5A50 000:271.785 - 0.015ms returns 0
T5A50 000:271.790 JLINK_WriteReg(R9, 0x20000200)
T5A50 000:271.794 - 0.006ms returns 0
T5A50 000:271.798 JLINK_WriteReg(R10, 0x00000000)
T5A50 000:271.803 - 0.006ms returns 0
T5A50 000:271.807 JLINK_WriteReg(R11, 0x00000000)
T5A50 000:271.811 - 0.006ms returns 0
T5A50 000:271.816 JLINK_WriteReg(R12, 0x00000000)
T5A50 000:271.820 - 0.006ms returns 0
T5A50 000:271.825 JLINK_WriteReg(R13 (SP), 0x20002000)
T5A50 000:271.829 - 0.008ms returns 0
T5A50 000:271.837 JLINK_WriteReg(R14, 0x20000001)
T5A50 000:271.841 - 0.006ms returns 0
T5A50 000:271.846 JLINK_WriteReg(R15 (PC), 0x20000020)
T5A50 000:272.005 - 0.161ms returns 0
T5A50 000:272.011 JLINK_WriteReg(XPSR, 0x01000000)
T5A50 000:272.015 - 0.006ms returns 0
T5A50 000:272.020 JLINK_WriteReg(MSP, 0x20002000)
T5A50 000:272.024 - 0.006ms returns 0
T5A50 000:272.029 JLINK_WriteReg(PSP, 0x20002000)
T5A50 000:272.033 - 0.006ms returns 0
T5A50 000:272.038 JLINK_WriteReg(CFBP, 0x00000000)
T5A50 000:272.042 - 0.006ms returns 0
T5A50 000:272.047 JLINK_SetBPEx(Addr = 0x20000000, Type = 0xFFFFFFF2)
T5A50 000:272.055   CPU_ReadMem(2 bytes @ 0x20000000)
T5A50 000:272.574 - 0.530ms returns 0x00000001
T5A50 000:272.580 JLINK_Go()
T5A50 000:272.589   CPU_WriteMem(2 bytes @ 0x20000000)
T5A50 000:273.095   CPU_ReadMem(4 bytes @ 0xE0001000)
T5A50 000:273.591   CPU_WriteMem(4 bytes @ 0xE0001000)
T5A50 000:274.109   CPU_WriteMem(4 bytes @ 0xE0002008)
T5A50 000:274.119   CPU_WriteMem(4 bytes @ 0xE000200C)
T5A50 000:274.126   CPU_WriteMem(4 bytes @ 0xE0002010)
T5A50 000:274.132   CPU_WriteMem(4 bytes @ 0xE0002014)
T5A50 000:275.055   CPU_WriteMem(4 bytes @ 0xE0001004)
T5A50 000:277.816 - 5.242ms
T5A50 000:277.827 JLINK_IsHalted()
T5A50 000:280.149   CPU_ReadMem(2 bytes @ 0x20000000)
T5A50 000:280.756 - 2.940ms returns TRUE
T5A50 000:280.773 JLINK_ReadReg(R15 (PC))
T5A50 000:280.780 - 0.008ms returns 0x20000000
T5A50 000:280.785 JLINK_ClrBPEx(BPHandle = 0x00000001)
T5A50 000:280.790 - 0.006ms returns 0x00
T5A50 000:280.795 JLINK_ReadReg(R0)
T5A50 000:280.799 - 0.006ms returns 0x00000000
T5A50 000:282.144 JLINK_HasError()
T5A50 000:282.157 JLINK_WriteReg(R0, 0x08000000)
T5A50 000:282.163 - 0.008ms returns 0
T5A50 000:282.168 JLINK_WriteReg(R1, 0x007A1200)
T5A50 000:282.173 - 0.006ms returns 0
T5A50 000:282.178 JLINK_WriteReg(R2, 0x00000001)
T5A50 000:282.182 - 0.006ms returns 0
T5A50 000:282.186 JLINK_WriteReg(R3, 0x00000000)
T5A50 000:282.190 - 0.006ms returns 0
T5A50 000:282.195 JLINK_WriteReg(R4, 0x00000000)
T5A50 000:282.199 - 0.006ms returns 0
T5A50 000:282.203 JLINK_WriteReg(R5, 0x00000000)
T5A50 000:282.208 - 0.006ms returns 0
T5A50 000:282.212 JLINK_WriteReg(R6, 0x00000000)
T5A50 000:282.216 - 0.006ms returns 0
T5A50 000:282.221 JLINK_WriteReg(R7, 0x00000000)
T5A50 000:282.225 - 0.006ms returns 0
T5A50 000:282.229 JLINK_WriteReg(R8, 0x00000000)
T5A50 000:282.234 - 0.006ms returns 0
T5A50 000:282.238 JLINK_WriteReg(R9, 0x20000200)
T5A50 000:282.242 - 0.006ms returns 0
T5A50 000:282.247 JLINK_WriteReg(R10, 0x00000000)
T5A50 000:282.251 - 0.006ms returns 0
T5A50 000:282.256 JLINK_WriteReg(R11, 0x00000000)
T5A50 000:282.260 - 0.006ms returns 0
T5A50 000:282.265 JLINK_WriteReg(R12, 0x00000000)
T5A50 000:282.269 - 0.006ms returns 0
T5A50 000:282.273 JLINK_WriteReg(R13 (SP), 0x20002000)
T5A50 000:282.278 - 0.006ms returns 0
T5A50 000:282.283 JLINK_WriteReg(R14, 0x20000001)
T5A50 000:282.287 - 0.006ms returns 0
T5A50 000:282.291 JLINK_WriteReg(R15 (PC), 0x200000CC)
T5A50 000:282.376 - 0.086ms returns 0
T5A50 000:282.381 JLINK_WriteReg(XPSR, 0x01000000)
T5A50 000:282.385 - 0.006ms returns 0
T5A50 000:282.390 JLINK_WriteReg(MSP, 0x20002000)
T5A50 000:282.394 - 0.006ms returns 0
T5A50 000:282.399 JLINK_WriteReg(PSP, 0x20002000)
T5A50 000:282.403 - 0.006ms returns 0
T5A50 000:282.407 JLINK_WriteReg(CFBP, 0x00000000)
T5A50 000:282.412 - 0.006ms returns 0
T5A50 000:282.416 JLINK_SetBPEx(Addr = 0x20000000, Type = 0xFFFFFFF2)
T5A50 000:282.422 - 0.007ms returns 0x00000002
T5A50 000:282.427 JLINK_Go()
T5A50 000:282.437   CPU_ReadMem(4 bytes @ 0xE0001000)
T5A50 000:285.195 - 2.775ms
T5A50 000:285.207 JLINK_IsHalted()
T5A50 000:285.780 - 0.580ms returns FALSE
T5A50 000:285.792 JLINK_HasError()
T5A50 000:293.697 JLINK_IsHalted()
T5A50 000:294.241 - 0.548ms returns FALSE
T5A50 000:294.251 JLINK_HasError()
T5A50 000:295.691 JLINK_IsHalted()
T5A50 000:296.244 - 0.578ms returns FALSE
T5A50 000:296.280 JLINK_HasError()
T5A50 000:297.692 JLINK_IsHalted()
T5A50 000:298.268 - 0.594ms returns FALSE
T5A50 000:298.296 JLINK_HasError()
T5A50 000:299.690 JLINK_IsHalted()
T5A50 000:300.218 - 0.537ms returns FALSE
T5A50 000:300.233 JLINK_HasError()
T5A50 000:301.790 JLINK_IsHalted()
T5A50 000:302.322 - 0.534ms returns FALSE
T5A50 000:302.328 JLINK_HasError()
T5A50 000:303.787 JLINK_IsHalted()
T5A50 000:304.297 - 0.518ms returns FALSE
T5A50 000:304.310 JLINK_HasError()
T5A50 000:305.792 JLINK_IsHalted()
T5A50 000:306.325 - 0.541ms returns FALSE
T5A50 000:306.338 JLINK_HasError()
T5A50 000:308.790 JLINK_IsHalted()
T5A50 000:311.116   CPU_ReadMem(2 bytes @ 0x20000000)
T5A50 000:311.699 - 2.914ms returns TRUE
T5A50 000:311.709 JLINK_ReadReg(R15 (PC))
T5A50 000:311.716 - 0.008ms returns 0x20000000
T5A50 000:311.721 JLINK_ClrBPEx(BPHandle = 0x00000002)
T5A50 000:311.726 - 0.006ms returns 0x00
T5A50 000:311.730 JLINK_ReadReg(R0)
T5A50 000:311.735 - 0.006ms returns 0x00000000
T5A50 000:365.556 JLINK_HasError()
T5A50 000:365.599 JLINK_WriteReg(R0, 0x00000001)
T5A50 000:365.608 - 0.011ms returns 0
T5A50 000:365.614 JLINK_WriteReg(R1, 0x007A1200)
T5A50 000:365.618 - 0.006ms returns 0
T5A50 000:365.623 JLINK_WriteReg(R2, 0x00000001)
T5A50 000:365.627 - 0.006ms returns 0
T5A50 000:365.632 JLINK_WriteReg(R3, 0x00000000)
T5A50 000:365.636 - 0.006ms returns 0
T5A50 000:365.641 JLINK_WriteReg(R4, 0x00000000)
T5A50 000:365.645 - 0.006ms returns 0
T5A50 000:365.649 JLINK_WriteReg(R5, 0x00000000)
T5A50 000:365.653 - 0.006ms returns 0
T5A50 000:365.658 JLINK_WriteReg(R6, 0x00000000)
T5A50 000:365.662 - 0.006ms returns 0
T5A50 000:365.666 JLINK_WriteReg(R7, 0x00000000)
T5A50 000:365.671 - 0.006ms returns 0
T5A50 000:365.675 JLINK_WriteReg(R8, 0x00000000)
T5A50 000:365.679 - 0.006ms returns 0
T5A50 000:365.684 JLINK_WriteReg(R9, 0x20000200)
T5A50 000:365.688 - 0.006ms returns 0
T5A50 000:365.693 JLINK_WriteReg(R10, 0x00000000)
T5A50 000:365.698 - 0.006ms returns 0
T5A50 000:365.702 JLINK_WriteReg(R11, 0x00000000)
T5A50 000:365.706 - 0.006ms returns 0
T5A50 000:365.711 JLINK_WriteReg(R12, 0x00000000)
T5A50 000:365.715 - 0.006ms returns 0
T5A50 000:365.719 JLINK_WriteReg(R13 (SP), 0x20002000)
T5A50 000:365.724 - 0.007ms returns 0
T5A50 000:365.729 JLINK_WriteReg(R14, 0x20000001)
T5A50 000:365.733 - 0.006ms returns 0
T5A50 000:365.738 JLINK_WriteReg(R15 (PC), 0x2000009E)
T5A50 000:365.742 - 0.006ms returns 0
T5A50 000:365.747 JLINK_WriteReg(XPSR, 0x01000000)
T5A50 000:365.751 - 0.006ms returns 0
T5A50 000:365.755 JLINK_WriteReg(MSP, 0x20002000)
T5A50 000:365.760 - 0.006ms returns 0
T5A50 000:365.764 JLINK_WriteReg(PSP, 0x20002000)
T5A50 000:365.768 - 0.006ms returns 0
T5A50 000:365.773 JLINK_WriteReg(CFBP, 0x00000000)
T5A50 000:365.777 - 0.006ms returns 0
T5A50 000:365.782 JLINK_SetBPEx(Addr = 0x20000000, Type = 0xFFFFFFF2)
T5A50 000:365.788 - 0.007ms returns 0x00000003
T5A50 000:365.792 JLINK_Go()
T5A50 000:365.807   CPU_ReadMem(4 bytes @ 0xE0001000)
T5A50 000:368.834 - 3.053ms
T5A50 000:368.850 JLINK_IsHalted()
T5A50 000:371.116   CPU_ReadMem(2 bytes @ 0x20000000)
T5A50 000:371.616 - 2.768ms returns TRUE
T5A50 000:371.623 JLINK_ReadReg(R15 (PC))
T5A50 000:371.629 - 0.007ms returns 0x20000000
T5A50 000:371.634 JLINK_ClrBPEx(BPHandle = 0x00000003)
T5A50 000:371.638 - 0.006ms returns 0x00
T5A50 000:371.643 JLINK_ReadReg(R0)
T5A50 000:371.647 - 0.006ms returns 0x00000000
T5A50 000:374.684 JLINK_WriteMem(0x20000000, 0x218 Bytes, ...)
T5A50 000:374.695   Data:  00 BE 0A E0 0D 78 2D 06 68 40 08 24 40 00 00 D3 ...
T5A50 000:374.709   CPU_WriteMem(536 bytes @ 0x20000000)
T5A50 000:377.020 - 2.346ms returns 0x218
T5A50 000:377.052 JLINK_HasError()
T5A50 000:377.059 JLINK_WriteReg(R0, 0x08000000)
T5A50 000:377.064 - 0.007ms returns 0
T5A50 000:377.069 JLINK_WriteReg(R1, 0x007A1200)
T5A50 000:377.074 - 0.006ms returns 0
T5A50 000:377.078 JLINK_WriteReg(R2, 0x00000002)
T5A50 000:377.083 - 0.006ms returns 0
T5A50 000:377.087 JLINK_WriteReg(R3, 0x00000000)
T5A50 000:377.091 - 0.006ms returns 0
T5A50 000:377.096 JLINK_WriteReg(R4, 0x00000000)
T5A50 000:377.140 - 0.046ms returns 0
T5A50 000:377.144 JLINK_WriteReg(R5, 0x00000000)
T5A50 000:377.149 - 0.006ms returns 0
T5A50 000:377.153 JLINK_WriteReg(R6, 0x00000000)
T5A50 000:377.157 - 0.006ms returns 0
T5A50 000:377.162 JLINK_WriteReg(R7, 0x00000000)
T5A50 000:377.166 - 0.006ms returns 0
T5A50 000:377.170 JLINK_WriteReg(R8, 0x00000000)
T5A50 000:377.174 - 0.006ms returns 0
T5A50 000:377.179 JLINK_WriteReg(R9, 0x20000200)
T5A50 000:377.183 - 0.006ms returns 0
T5A50 000:377.188 JLINK_WriteReg(R10, 0x00000000)
T5A50 000:377.192 - 0.006ms returns 0
T5A50 000:377.196 JLINK_WriteReg(R11, 0x00000000)
T5A50 000:377.201 - 0.006ms returns 0
T5A50 000:377.205 JLINK_WriteReg(R12, 0x00000000)
T5A50 000:377.209 - 0.006ms returns 0
T5A50 000:377.214 JLINK_WriteReg(R13 (SP), 0x20002000)
T5A50 000:377.218 - 0.006ms returns 0
T5A50 000:377.223 JLINK_WriteReg(R14, 0x20000001)
T5A50 000:377.227 - 0.006ms returns 0
T5A50 000:377.232 JLINK_WriteReg(R15 (PC), 0x20000020)
T5A50 000:377.236 - 0.006ms returns 0
T5A50 000:377.240 JLINK_WriteReg(XPSR, 0x01000000)
T5A50 000:377.245 - 0.006ms returns 0
T5A50 000:377.249 JLINK_WriteReg(MSP, 0x20002000)
T5A50 000:377.253 - 0.006ms returns 0
T5A50 000:377.258 JLINK_WriteReg(PSP, 0x20002000)
T5A50 000:377.262 - 0.006ms returns 0
T5A50 000:377.267 JLINK_WriteReg(CFBP, 0x00000000)
T5A50 000:377.271 - 0.006ms returns 0
T5A50 000:377.275 JLINK_SetBPEx(Addr = 0x20000000, Type = 0xFFFFFFF2)
T5A50 000:377.282   CPU_ReadMem(2 bytes @ 0x20000000)
T5A50 000:377.777 - 0.505ms returns 0x00000004
T5A50 000:377.785 JLINK_Go()
T5A50 000:377.790   CPU_WriteMem(2 bytes @ 0x20000000)
T5A50 000:378.288   CPU_ReadMem(4 bytes @ 0xE0001000)
T5A50 000:381.063 - 3.295ms
T5A50 000:381.092 JLINK_IsHalted()
T5A50 000:383.456   CPU_ReadMem(2 bytes @ 0x20000000)
T5A50 000:383.975 - 2.892ms returns TRUE
T5A50 000:383.990 JLINK_ReadReg(R15 (PC))
T5A50 000:383.997 - 0.008ms returns 0x20000000
T5A50 000:384.002 JLINK_ClrBPEx(BPHandle = 0x00000004)
T5A50 000:384.007 - 0.006ms returns 0x00
T5A50 000:384.012 JLINK_ReadReg(R0)
T5A50 000:384.016 - 0.006ms returns 0x00000000
T5A50 000:384.249 JLINK_WriteMem(0x20000218, 0x1E8 Bytes, ...)
T5A50 000:384.257   Data:  10 05 00 20 D5 00 00 08 09 1B 00 08 75 17 00 08 ...
T5A50 000:384.270   CPU_WriteMem(488 bytes @ 0x20000218)
T5A50 000:386.356 - 2.114ms returns 0x1E8
T5A50 000:386.369 JLINK_WriteMem(0x20000400, 0x218 Bytes, ...)
T5A50 000:386.374   Data:  51 68 03 26 0D 46 35 40 6A 1E 01 2A 04 91 1B D8 ...
T5A50 000:386.385   CPU_WriteMem(536 bytes @ 0x20000400)
T5A50 000:388.729 - 2.366ms returns 0x218
T5A50 000:388.741 JLINK_HasError()
T5A50 000:388.746 JLINK_WriteReg(R0, 0x08000000)
T5A50 000:388.753 - 0.008ms returns 0
T5A50 000:388.757 JLINK_WriteReg(R1, 0x00000400)
T5A50 000:388.762 - 0.006ms returns 0
T5A50 000:388.766 JLINK_WriteReg(R2, 0x20000218)
T5A50 000:388.771 - 0.006ms returns 0
T5A50 000:388.775 JLINK_WriteReg(R3, 0x00000000)
T5A50 000:388.779 - 0.006ms returns 0
T5A50 000:388.784 JLINK_WriteReg(R4, 0x00000000)
T5A50 000:388.788 - 0.006ms returns 0
T5A50 000:388.793 JLINK_WriteReg(R5, 0x00000000)
T5A50 000:388.797 - 0.006ms returns 0
T5A50 000:388.801 JLINK_WriteReg(R6, 0x00000000)
T5A50 000:388.805 - 0.006ms returns 0
T5A50 000:388.810 JLINK_WriteReg(R7, 0x00000000)
T5A50 000:388.814 - 0.006ms returns 0
T5A50 000:388.818 JLINK_WriteReg(R8, 0x00000000)
T5A50 000:388.823 - 0.006ms returns 0
T5A50 000:388.827 JLINK_WriteReg(R9, 0x20000200)
T5A50 000:388.831 - 0.006ms returns 0
T5A50 000:388.836 JLINK_WriteReg(R10, 0x00000000)
T5A50 000:388.840 - 0.006ms returns 0
T5A50 000:388.845 JLINK_WriteReg(R11, 0x00000000)
T5A50 000:388.849 - 0.006ms returns 0
T5A50 000:388.854 JLINK_WriteReg(R12, 0x00000000)
T5A50 000:388.859 - 0.007ms returns 0
T5A50 000:388.864 JLINK_WriteReg(R13 (SP), 0x20002000)
T5A50 000:388.868 - 0.006ms returns 0
T5A50 000:388.873 JLINK_WriteReg(R14, 0x20000001)
T5A50 000:388.877 - 0.006ms returns 0
T5A50 000:388.882 JLINK_WriteReg(R15 (PC), 0x2000017E)
T5A50 000:388.888 - 0.010ms returns 0
T5A50 000:388.895 JLINK_WriteReg(XPSR, 0x01000000)
T5A50 000:388.899 - 0.006ms returns 0
T5A50 000:388.903 JLINK_WriteReg(MSP, 0x20002000)
T5A50 000:388.907 - 0.006ms returns 0
T5A50 000:388.912 JLINK_WriteReg(PSP, 0x20002000)
T5A50 000:388.916 - 0.006ms returns 0
T5A50 000:388.921 JLINK_WriteReg(CFBP, 0x00000000)
T5A50 000:388.925 - 0.006ms returns 0
T5A50 000:388.929 JLINK_SetBPEx(Addr = 0x20000000, Type = 0xFFFFFFF2)
T5A50 000:388.934 - 0.007ms returns 0x00000005
T5A50 000:388.939 JLINK_Go()
T5A50 000:388.948   CPU_ReadMem(4 bytes @ 0xE0001000)
T5A50 000:391.701 - 2.771ms
T5A50 000:391.716 JLINK_IsHalted()
T5A50 000:392.227 - 0.518ms returns FALSE
T5A50 000:392.240 JLINK_HasError()
T5A50 000:394.868 JLINK_IsHalted()
T5A50 000:395.384 - 0.522ms returns FALSE
T5A50 000:395.395 JLINK_HasError()
T5A50 000:396.866 JLINK_IsHalted()
T5A50 000:397.413 - 0.562ms returns FALSE
T5A50 000:397.436 JLINK_HasError()
T5A50 000:399.024 JLINK_IsHalted()
T5A50 000:399.550 - 0.535ms returns FALSE
T5A50 000:399.565 JLINK_HasError()
T5A50 000:401.018 JLINK_IsHalted()
T5A50 000:401.528 - 0.513ms returns FALSE
T5A50 000:401.535 JLINK_HasError()
T5A50 000:403.014 JLINK_IsHalted()
T5A50 000:405.254   CPU_ReadMem(2 bytes @ 0x20000000)
T5A50 000:405.735 - 2.723ms returns TRUE
T5A50 000:405.742 JLINK_ReadReg(R15 (PC))
T5A50 000:405.749 - 0.009ms returns 0x20000000
T5A50 000:405.754 JLINK_ClrBPEx(BPHandle = 0x00000005)
T5A50 000:405.759 - 0.006ms returns 0x00
T5A50 000:405.764 JLINK_ReadReg(R0)
T5A50 000:405.769 - 0.006ms returns 0x00000000
T5A50 000:406.079 JLINK_WriteMem(0x20000218, 0x1E8 Bytes, ...)
T5A50 000:406.088   Data:  20 46 00 F0 DD FA 24 20 68 70 20 68 02 68 01 21 ...
T5A50 000:406.099   CPU_WriteMem(488 bytes @ 0x20000218)
T5A50 000:408.239 - 2.164ms returns 0x1E8
T5A50 000:408.248 JLINK_WriteMem(0x20000400, 0x218 Bytes, ...)
T5A50 000:408.252   Data:  71 1C 0E D0 00 2E 00 D1 89 E0 FF F7 AF FE 06 99 ...
T5A50 000:408.261   CPU_WriteMem(536 bytes @ 0x20000400)
T5A50 000:410.472 - 2.228ms returns 0x218
T5A50 000:410.480 JLINK_HasError()
T5A50 000:410.486 JLINK_WriteReg(R0, 0x08000400)
T5A50 000:410.492 - 0.008ms returns 0
T5A50 000:410.498 JLINK_WriteReg(R1, 0x00000400)
T5A50 000:410.504 - 0.008ms returns 0
T5A50 000:410.509 JLINK_WriteReg(R2, 0x20000218)
T5A50 000:410.514 - 0.006ms returns 0
T5A50 000:410.518 JLINK_WriteReg(R3, 0x00000000)
T5A50 000:410.522 - 0.006ms returns 0
T5A50 000:410.527 JLINK_WriteReg(R4, 0x00000000)
T5A50 000:410.531 - 0.006ms returns 0
T5A50 000:410.535 JLINK_WriteReg(R5, 0x00000000)
T5A50 000:410.540 - 0.006ms returns 0
T5A50 000:410.544 JLINK_WriteReg(R6, 0x00000000)
T5A50 000:410.548 - 0.006ms returns 0
T5A50 000:410.553 JLINK_WriteReg(R7, 0x00000000)
T5A50 000:410.557 - 0.006ms returns 0
T5A50 000:410.561 JLINK_WriteReg(R8, 0x00000000)
T5A50 000:410.566 - 0.009ms returns 0
T5A50 000:410.576 JLINK_WriteReg(R9, 0x20000200)
T5A50 000:410.580 - 0.006ms returns 0
T5A50 000:410.584 JLINK_WriteReg(R10, 0x00000000)
T5A50 000:410.589 - 0.006ms returns 0
T5A50 000:410.593 JLINK_WriteReg(R11, 0x00000000)
T5A50 000:410.597 - 0.006ms returns 0
T5A50 000:410.602 JLINK_WriteReg(R12, 0x00000000)
T5A50 000:410.609 - 0.009ms returns 0
T5A50 000:410.614 JLINK_WriteReg(R13 (SP), 0x20002000)
T5A50 000:410.619 - 0.007ms returns 0
T5A50 000:410.625 JLINK_WriteReg(R14, 0x20000001)
T5A50 000:410.629 - 0.006ms returns 0
T5A50 000:410.633 JLINK_WriteReg(R15 (PC), 0x2000017E)
T5A50 000:410.638 - 0.006ms returns 0
T5A50 000:410.643 JLINK_WriteReg(XPSR, 0x01000000)
T5A50 000:410.658 - 0.017ms returns 0
T5A50 000:410.664 JLINK_WriteReg(MSP, 0x20002000)
T5A50 000:410.669 - 0.007ms returns 0
T5A50 000:410.674 JLINK_WriteReg(PSP, 0x20002000)
T5A50 000:410.678 - 0.006ms returns 0
T5A50 000:410.683 JLINK_WriteReg(CFBP, 0x00000000)
T5A50 000:410.687 - 0.006ms returns 0
T5A50 000:410.692 JLINK_SetBPEx(Addr = 0x20000000, Type = 0xFFFFFFF2)
T5A50 000:410.698 - 0.007ms returns 0x00000006
T5A50 000:410.703 JLINK_Go()
T5A50 000:410.715   CPU_ReadMem(4 bytes @ 0xE0001000)
T5A50 000:413.612 - 2.938ms
T5A50 000:413.650 JLINK_IsHalted()
T5A50 000:414.222 - 0.593ms returns FALSE
T5A50 000:414.252 JLINK_HasError()
T5A50 000:417.636 JLINK_IsHalted()
T5A50 000:418.182 - 0.557ms returns FALSE
T5A50 000:418.200 JLINK_HasError()
T5A50 000:419.661 JLINK_IsHalted()
T5A50 000:420.204 - 0.562ms returns FALSE
T5A50 000:420.234 JLINK_HasError()
T5A50 000:421.635 JLINK_IsHalted()
T5A50 000:422.183 - 0.561ms returns FALSE
T5A50 000:422.206 JLINK_HasError()
T5A50 000:423.633 JLINK_IsHalted()
T5A50 000:424.169 - 0.545ms returns FALSE
T5A50 000:424.184 JLINK_HasError()
T5A50 000:425.629 JLINK_IsHalted()
T5A50 000:428.141   CPU_ReadMem(2 bytes @ 0x20000000)
T5A50 000:428.704 - 3.078ms returns TRUE
T5A50 000:428.712 JLINK_ReadReg(R15 (PC))
T5A50 000:428.718 - 0.008ms returns 0x20000000
T5A50 000:428.723 JLINK_ClrBPEx(BPHandle = 0x00000006)
T5A50 000:428.728 - 0.006ms returns 0x00
T5A50 000:428.733 JLINK_ReadReg(R0)
T5A50 000:428.737 - 0.006ms returns 0x00000000
T5A50 000:429.266 JLINK_WriteMem(0x20000218, 0x1E8 Bytes, ...)
T5A50 000:429.279   Data:  01 99 06 9A 01 F0 AC F8 00 28 ED D1 20 68 00 99 ...
T5A50 000:429.292   CPU_WriteMem(488 bytes @ 0x20000218)
T5A50 000:431.527 - 2.273ms returns 0x1E8
T5A50 000:431.547 JLINK_WriteMem(0x20000400, 0x218 Bytes, ...)
T5A50 000:431.552   Data:  01 D0 FF F7 B3 FB 11 4D 28 68 02 21 08 43 28 60 ...
T5A50 000:431.564   CPU_WriteMem(536 bytes @ 0x20000400)
T5A50 000:433.911 - 2.371ms returns 0x218
T5A50 000:433.923 JLINK_HasError()
T5A50 000:433.929 JLINK_WriteReg(R0, 0x08000800)
T5A50 000:433.935 - 0.008ms returns 0
T5A50 000:433.940 JLINK_WriteReg(R1, 0x00000400)
T5A50 000:433.944 - 0.006ms returns 0
T5A50 000:433.949 JLINK_WriteReg(R2, 0x20000218)
T5A50 000:433.953 - 0.006ms returns 0
T5A50 000:433.958 JLINK_WriteReg(R3, 0x00000000)
T5A50 000:433.962 - 0.006ms returns 0
T5A50 000:433.966 JLINK_WriteReg(R4, 0x00000000)
T5A50 000:433.970 - 0.006ms returns 0
T5A50 000:433.975 JLINK_WriteReg(R5, 0x00000000)
T5A50 000:433.979 - 0.006ms returns 0
T5A50 000:433.984 JLINK_WriteReg(R6, 0x00000000)
T5A50 000:433.988 - 0.006ms returns 0
T5A50 000:433.992 JLINK_WriteReg(R7, 0x00000000)
T5A50 000:433.996 - 0.006ms returns 0
T5A50 000:434.001 JLINK_WriteReg(R8, 0x00000000)
T5A50 000:434.005 - 0.006ms returns 0
T5A50 000:434.010 JLINK_WriteReg(R9, 0x20000200)
T5A50 000:434.014 - 0.006ms returns 0
T5A50 000:434.019 JLINK_WriteReg(R10, 0x00000000)
T5A50 000:434.023 - 0.006ms returns 0
T5A50 000:434.027 JLINK_WriteReg(R11, 0x00000000)
T5A50 000:434.031 - 0.006ms returns 0
T5A50 000:434.036 JLINK_WriteReg(R12, 0x00000000)
T5A50 000:434.040 - 0.006ms returns 0
T5A50 000:434.045 JLINK_WriteReg(R13 (SP), 0x20002000)
T5A50 000:434.050 - 0.007ms returns 0
T5A50 000:434.054 JLINK_WriteReg(R14, 0x20000001)
T5A50 000:434.058 - 0.006ms returns 0
T5A50 000:434.063 JLINK_WriteReg(R15 (PC), 0x2000017E)
T5A50 000:434.067 - 0.006ms returns 0
T5A50 000:434.072 JLINK_WriteReg(XPSR, 0x01000000)
T5A50 000:434.076 - 0.006ms returns 0
T5A50 000:434.080 JLINK_WriteReg(MSP, 0x20002000)
T5A50 000:434.084 - 0.006ms returns 0
T5A50 000:434.089 JLINK_WriteReg(PSP, 0x20002000)
T5A50 000:434.093 - 0.006ms returns 0
T5A50 000:434.098 JLINK_WriteReg(CFBP, 0x00000000)
T5A50 000:434.102 - 0.006ms returns 0
T5A50 000:434.106 JLINK_SetBPEx(Addr = 0x20000000, Type = 0xFFFFFFF2)
T5A50 000:434.111 - 0.008ms returns 0x00000007
T5A50 000:434.117 JLINK_Go()
T5A50 000:434.126   CPU_ReadMem(4 bytes @ 0xE0001000)
T5A50 000:436.941 - 2.831ms
T5A50 000:436.953 JLINK_IsHalted()
T5A50 000:437.444 - 0.494ms returns FALSE
T5A50 000:437.450 JLINK_HasError()
T5A50 000:439.632 JLINK_IsHalted()
T5A50 000:440.105 - 0.480ms returns FALSE
T5A50 000:440.117 JLINK_HasError()
T5A50 000:441.627 JLINK_IsHalted()
T5A50 000:442.152 - 0.543ms returns FALSE
T5A50 000:442.178 JLINK_HasError()
T5A50 000:443.628 JLINK_IsHalted()
T5A50 000:444.100 - 0.480ms returns FALSE
T5A50 000:444.113 JLINK_HasError()
T5A50 000:445.630 JLINK_IsHalted()
T5A50 000:446.165 - 0.551ms returns FALSE
T5A50 000:446.192 JLINK_HasError()
T5A50 000:447.630 JLINK_IsHalted()
T5A50 000:449.946   CPU_ReadMem(2 bytes @ 0x20000000)
T5A50 000:450.451 - 2.824ms returns TRUE
T5A50 000:450.461 JLINK_ReadReg(R15 (PC))
T5A50 000:450.467 - 0.008ms returns 0x20000000
T5A50 000:450.502 JLINK_ClrBPEx(BPHandle = 0x00000007)
T5A50 000:450.507 - 0.007ms returns 0x00
T5A50 000:450.512 JLINK_ReadReg(R0)
T5A50 000:450.516 - 0.006ms returns 0x00000000
T5A50 000:451.021 JLINK_WriteMem(0x20000218, 0x1E8 Bytes, ...)
T5A50 000:451.032   Data:  F7 D9 03 26 05 98 04 99 00 29 23 D0 27 E0 03 20 ...
T5A50 000:451.045   CPU_WriteMem(488 bytes @ 0x20000218)
T5A50 000:453.225 - 2.219ms returns 0x1E8
T5A50 000:453.248 JLINK_WriteMem(0x20000400, 0x218 Bytes, ...)
T5A50 000:453.259   Data:  9B 0E 00 08 A5 0E 00 08 AF 0E 00 08 19 46 08 39 ...
T5A50 000:453.277   CPU_WriteMem(536 bytes @ 0x20000400)
T5A50 000:455.722 - 2.492ms returns 0x218
T5A50 000:455.749 JLINK_HasError()
T5A50 000:455.755 JLINK_WriteReg(R0, 0x08000C00)
T5A50 000:455.762 - 0.008ms returns 0
T5A50 000:455.767 JLINK_WriteReg(R1, 0x00000400)
T5A50 000:455.771 - 0.006ms returns 0
T5A50 000:455.776 JLINK_WriteReg(R2, 0x20000218)
T5A50 000:455.780 - 0.006ms returns 0
T5A50 000:455.784 JLINK_WriteReg(R3, 0x00000000)
T5A50 000:455.789 - 0.006ms returns 0
T5A50 000:455.793 JLINK_WriteReg(R4, 0x00000000)
T5A50 000:455.797 - 0.006ms returns 0
T5A50 000:455.802 JLINK_WriteReg(R5, 0x00000000)
T5A50 000:455.806 - 0.006ms returns 0
T5A50 000:455.811 JLINK_WriteReg(R6, 0x00000000)
T5A50 000:455.815 - 0.006ms returns 0
T5A50 000:455.819 JLINK_WriteReg(R7, 0x00000000)
T5A50 000:455.823 - 0.006ms returns 0
T5A50 000:455.828 JLINK_WriteReg(R8, 0x00000000)
T5A50 000:455.832 - 0.006ms returns 0
T5A50 000:455.837 JLINK_WriteReg(R9, 0x20000200)
T5A50 000:455.841 - 0.006ms returns 0
T5A50 000:455.845 JLINK_WriteReg(R10, 0x00000000)
T5A50 000:455.850 - 0.006ms returns 0
T5A50 000:455.854 JLINK_WriteReg(R11, 0x00000000)
T5A50 000:455.858 - 0.006ms returns 0
T5A50 000:455.863 JLINK_WriteReg(R12, 0x00000000)
T5A50 000:455.867 - 0.006ms returns 0
T5A50 000:455.872 JLINK_WriteReg(R13 (SP), 0x20002000)
T5A50 000:455.876 - 0.006ms returns 0
T5A50 000:455.881 JLINK_WriteReg(R14, 0x20000001)
T5A50 000:455.885 - 0.006ms returns 0
T5A50 000:455.890 JLINK_WriteReg(R15 (PC), 0x2000017E)
T5A50 000:455.894 - 0.006ms returns 0
T5A50 000:455.899 JLINK_WriteReg(XPSR, 0x01000000)
T5A50 000:455.903 - 0.006ms returns 0
T5A50 000:455.907 JLINK_WriteReg(MSP, 0x20002000)
T5A50 000:455.911 - 0.006ms returns 0
T5A50 000:455.916 JLINK_WriteReg(PSP, 0x20002000)
T5A50 000:455.920 - 0.006ms returns 0
T5A50 000:455.925 JLINK_WriteReg(CFBP, 0x00000000)
T5A50 000:455.929 - 0.006ms returns 0
T5A50 000:455.934 JLINK_SetBPEx(Addr = 0x20000000, Type = 0xFFFFFFF2)
T5A50 000:455.939 - 0.007ms returns 0x00000008
T5A50 000:455.944 JLINK_Go()
T5A50 000:455.953   CPU_ReadMem(4 bytes @ 0xE0001000)
T5A50 000:458.700 - 2.763ms
T5A50 000:458.712 JLINK_IsHalted()
T5A50 000:459.155 - 0.445ms returns FALSE
T5A50 000:459.160 JLINK_HasError()
T5A50 000:460.625 JLINK_IsHalted()
T5A50 000:461.091 - 0.470ms returns FALSE
T5A50 000:461.099 JLINK_HasError()
T5A50 000:462.640 JLINK_IsHalted()
T5A50 000:463.164 - 0.541ms returns FALSE
T5A50 000:463.192 JLINK_HasError()
T5A50 000:464.629 JLINK_IsHalted()
T5A50 000:465.160 - 0.558ms returns FALSE
T5A50 000:465.191 JLINK_HasError()
T5A50 000:466.625 JLINK_IsHalted()
T5A50 000:467.104 - 0.481ms returns FALSE
T5A50 000:467.110 JLINK_HasError()
T5A50 000:468.627 JLINK_IsHalted()
T5A50 000:469.102 - 0.478ms returns FALSE
T5A50 000:469.110 JLINK_HasError()
T5A50 000:470.625 JLINK_IsHalted()
T5A50 000:472.862   CPU_ReadMem(2 bytes @ 0x20000000)
T5A50 000:473.364 - 2.741ms returns TRUE
T5A50 000:473.371 JLINK_ReadReg(R15 (PC))
T5A50 000:473.377 - 0.008ms returns 0x20000000
T5A50 000:473.382 JLINK_ClrBPEx(BPHandle = 0x00000008)
T5A50 000:473.387 - 0.006ms returns 0x00
T5A50 000:473.394 JLINK_ReadReg(R0)
T5A50 000:473.401 - 0.008ms returns 0x00000000
T5A50 000:473.725 JLINK_WriteMem(0x20000218, 0x1E8 Bytes, ...)
T5A50 000:473.732   Data:  08 29 14 D0 00 28 12 D1 05 98 42 68 01 20 01 04 ...
T5A50 000:473.744   CPU_WriteMem(488 bytes @ 0x20000218)
T5A50 000:475.923 - 2.205ms returns 0x1E8
T5A50 000:475.935 JLINK_WriteMem(0x20000400, 0x218 Bytes, ...)
T5A50 000:475.940   Data:  FF F7 B4 F8 06 46 38 68 20 42 00 D0 23 E7 FF F7 ...
T5A50 000:475.951   CPU_WriteMem(536 bytes @ 0x20000400)
T5A50 000:478.263 - 2.335ms returns 0x218
T5A50 000:478.277 JLINK_HasError()
T5A50 000:478.306 JLINK_WriteReg(R0, 0x08001000)
T5A50 000:478.313 - 0.008ms returns 0
T5A50 000:478.318 JLINK_WriteReg(R1, 0x00000400)
T5A50 000:478.322 - 0.006ms returns 0
T5A50 000:478.327 JLINK_WriteReg(R2, 0x20000218)
T5A50 000:478.331 - 0.006ms returns 0
T5A50 000:478.336 JLINK_WriteReg(R3, 0x00000000)
T5A50 000:478.340 - 0.006ms returns 0
T5A50 000:478.344 JLINK_WriteReg(R4, 0x00000000)
T5A50 000:478.348 - 0.006ms returns 0
T5A50 000:478.353 JLINK_WriteReg(R5, 0x00000000)
T5A50 000:478.357 - 0.006ms returns 0
T5A50 000:478.362 JLINK_WriteReg(R6, 0x00000000)
T5A50 000:478.366 - 0.006ms returns 0
T5A50 000:478.370 JLINK_WriteReg(R7, 0x00000000)
T5A50 000:478.374 - 0.006ms returns 0
T5A50 000:478.379 JLINK_WriteReg(R8, 0x00000000)
T5A50 000:478.383 - 0.006ms returns 0
T5A50 000:478.388 JLINK_WriteReg(R9, 0x20000200)
T5A50 000:478.392 - 0.006ms returns 0
T5A50 000:478.396 JLINK_WriteReg(R10, 0x00000000)
T5A50 000:478.401 - 0.006ms returns 0
T5A50 000:478.405 JLINK_WriteReg(R11, 0x00000000)
T5A50 000:478.409 - 0.006ms returns 0
T5A50 000:478.414 JLINK_WriteReg(R12, 0x00000000)
T5A50 000:478.418 - 0.006ms returns 0
T5A50 000:478.422 JLINK_WriteReg(R13 (SP), 0x20002000)
T5A50 000:478.427 - 0.006ms returns 0
T5A50 000:478.432 JLINK_WriteReg(R14, 0x20000001)
T5A50 000:478.436 - 0.006ms returns 0
T5A50 000:478.440 JLINK_WriteReg(R15 (PC), 0x2000017E)
T5A50 000:478.444 - 0.006ms returns 0
T5A50 000:478.449 JLINK_WriteReg(XPSR, 0x01000000)
T5A50 000:478.453 - 0.006ms returns 0
T5A50 000:478.458 JLINK_WriteReg(MSP, 0x20002000)
T5A50 000:478.462 - 0.006ms returns 0
T5A50 000:478.466 JLINK_WriteReg(PSP, 0x20002000)
T5A50 000:478.470 - 0.006ms returns 0
T5A50 000:478.475 JLINK_WriteReg(CFBP, 0x00000000)
T5A50 000:478.479 - 0.006ms returns 0
T5A50 000:478.484 JLINK_SetBPEx(Addr = 0x20000000, Type = 0xFFFFFFF2)
T5A50 000:478.489 - 0.007ms returns 0x00000009
T5A50 000:478.494 JLINK_Go()
T5A50 000:478.503   CPU_ReadMem(4 bytes @ 0xE0001000)
T5A50 000:481.202 - 2.741ms
T5A50 000:481.246 JLINK_IsHalted()
T5A50 000:481.832 - 0.595ms returns FALSE
T5A50 000:481.846 JLINK_HasError()
T5A50 000:483.231 JLINK_IsHalted()
T5A50 000:483.780 - 0.557ms returns FALSE
T5A50 000:483.792 JLINK_HasError()
T5A50 000:485.230 JLINK_IsHalted()
T5A50 000:485.736 - 0.513ms returns FALSE
T5A50 000:485.748 JLINK_HasError()
T5A50 000:487.225 JLINK_IsHalted()
T5A50 000:487.698 - 0.476ms returns FALSE
T5A50 000:487.706 JLINK_HasError()
T5A50 000:489.225 JLINK_IsHalted()
T5A50 000:489.702 - 0.479ms returns FALSE
T5A50 000:489.707 JLINK_HasError()
T5A50 000:491.225 JLINK_IsHalted()
T5A50 000:491.698 - 0.475ms returns FALSE
T5A50 000:491.705 JLINK_HasError()
T5A50 000:493.225 JLINK_IsHalted()
T5A50 000:495.505   CPU_ReadMem(2 bytes @ 0x20000000)
T5A50 000:496.007 - 2.798ms returns TRUE
T5A50 000:496.033 JLINK_ReadReg(R15 (PC))
T5A50 000:496.048 - 0.019ms returns 0x20000000
T5A50 000:496.068 JLINK_ClrBPEx(BPHandle = 0x00000009)
T5A50 000:496.077 - 0.011ms returns 0x00
T5A50 000:496.084 JLINK_ReadReg(R0)
T5A50 000:496.089 - 0.007ms returns 0x00000000
T5A50 000:496.796 JLINK_WriteMem(0x20000218, 0x1E8 Bytes, ...)
T5A50 000:496.809   Data:  0B 40 03 21 89 07 59 18 01 60 00 20 90 60 07 21 ...
T5A50 000:496.824   CPU_WriteMem(488 bytes @ 0x20000218)
T5A50 000:499.038 - 2.254ms returns 0x1E8
T5A50 000:499.055 JLINK_WriteMem(0x20000400, 0x218 Bytes, ...)
T5A50 000:499.060   Data:  00 68 40 07 0C D5 0B 48 00 90 B1 05 00 22 20 46 ...
T5A50 000:499.076   CPU_WriteMem(536 bytes @ 0x20000400)
T5A50 000:501.365 - 2.317ms returns 0x218
T5A50 000:501.378 JLINK_HasError()
T5A50 000:501.385 JLINK_WriteReg(R0, 0x08001400)
T5A50 000:501.391 - 0.008ms returns 0
T5A50 000:501.395 JLINK_WriteReg(R1, 0x00000400)
T5A50 000:501.400 - 0.006ms returns 0
T5A50 000:501.404 JLINK_WriteReg(R2, 0x20000218)
T5A50 000:501.408 - 0.006ms returns 0
T5A50 000:501.413 JLINK_WriteReg(R3, 0x00000000)
T5A50 000:501.417 - 0.006ms returns 0
T5A50 000:501.422 JLINK_WriteReg(R4, 0x00000000)
T5A50 000:501.426 - 0.006ms returns 0
T5A50 000:501.430 JLINK_WriteReg(R5, 0x00000000)
T5A50 000:501.434 - 0.006ms returns 0
T5A50 000:501.439 JLINK_WriteReg(R6, 0x00000000)
T5A50 000:501.443 - 0.006ms returns 0
T5A50 000:501.447 JLINK_WriteReg(R7, 0x00000000)
T5A50 000:501.452 - 0.006ms returns 0
T5A50 000:501.456 JLINK_WriteReg(R8, 0x00000000)
T5A50 000:501.460 - 0.006ms returns 0
T5A50 000:501.465 JLINK_WriteReg(R9, 0x20000200)
T5A50 000:501.469 - 0.006ms returns 0
T5A50 000:501.473 JLINK_WriteReg(R10, 0x00000000)
T5A50 000:501.478 - 0.006ms returns 0
T5A50 000:501.482 JLINK_WriteReg(R11, 0x00000000)
T5A50 000:501.486 - 0.006ms returns 0
T5A50 000:501.491 JLINK_WriteReg(R12, 0x00000000)
T5A50 000:501.495 - 0.006ms returns 0
T5A50 000:501.500 JLINK_WriteReg(R13 (SP), 0x20002000)
T5A50 000:501.504 - 0.006ms returns 0
T5A50 000:501.509 JLINK_WriteReg(R14, 0x20000001)
T5A50 000:501.513 - 0.006ms returns 0
T5A50 000:501.518 JLINK_WriteReg(R15 (PC), 0x2000017E)
T5A50 000:501.522 - 0.006ms returns 0
T5A50 000:501.526 JLINK_WriteReg(XPSR, 0x01000000)
T5A50 000:501.531 - 0.006ms returns 0
T5A50 000:501.535 JLINK_WriteReg(MSP, 0x20002000)
T5A50 000:501.539 - 0.006ms returns 0
T5A50 000:501.544 JLINK_WriteReg(PSP, 0x20002000)
T5A50 000:501.548 - 0.006ms returns 0
T5A50 000:501.553 JLINK_WriteReg(CFBP, 0x00000000)
T5A50 000:501.557 - 0.006ms returns 0
T5A50 000:501.561 JLINK_SetBPEx(Addr = 0x20000000, Type = 0xFFFFFFF2)
T5A50 000:501.567 - 0.007ms returns 0x0000000A
T5A50 000:501.571 JLINK_Go()
T5A50 000:501.581   CPU_ReadMem(4 bytes @ 0xE0001000)
T5A50 000:504.375 - 2.812ms
T5A50 000:504.389 JLINK_IsHalted()
T5A50 000:504.920 - 0.533ms returns FALSE
T5A50 000:504.928 JLINK_HasError()
T5A50 000:507.225 JLINK_IsHalted()
T5A50 000:507.695 - 0.471ms returns FALSE
T5A50 000:507.701 JLINK_HasError()
T5A50 000:509.233 JLINK_IsHalted()
T5A50 000:509.734 - 0.504ms returns FALSE
T5A50 000:509.741 JLINK_HasError()
T5A50 000:511.261 JLINK_IsHalted()
T5A50 000:511.723 - 0.464ms returns FALSE
T5A50 000:511.729 JLINK_HasError()
T5A50 000:513.232 JLINK_IsHalted()
T5A50 000:513.741 - 0.526ms returns FALSE
T5A50 000:513.768 JLINK_HasError()
T5A50 000:515.233 JLINK_IsHalted()
T5A50 000:517.518   CPU_ReadMem(2 bytes @ 0x20000000)
T5A50 000:517.999 - 2.768ms returns TRUE
T5A50 000:518.006 JLINK_ReadReg(R15 (PC))
T5A50 000:518.012 - 0.008ms returns 0x20000000
T5A50 000:518.017 JLINK_ClrBPEx(BPHandle = 0x0000000A)
T5A50 000:518.022 - 0.007ms returns 0x00
T5A50 000:518.027 JLINK_ReadReg(R0)
T5A50 000:518.031 - 0.006ms returns 0x00000000
T5A50 000:518.434 JLINK_WriteMem(0x20000218, 0x1E8 Bytes, ...)
T5A50 000:518.444   Data:  08 D4 81 69 89 06 05 D4 81 69 89 06 02 D4 81 69 ...
T5A50 000:518.456   CPU_WriteMem(488 bytes @ 0x20000218)
T5A50 000:520.624 - 2.199ms returns 0x1E8
T5A50 000:520.639 JLINK_WriteMem(0x20000400, 0x218 Bytes, ...)
T5A50 000:520.644   Data:  81 70 01 25 28 46 01 B0 F0 BD 00 00 F0 B5 87 B0 ...
T5A50 000:520.654   CPU_WriteMem(536 bytes @ 0x20000400)
T5A50 000:522.996 - 2.366ms returns 0x218
T5A50 000:523.010 JLINK_HasError()
T5A50 000:523.016 JLINK_WriteReg(R0, 0x08001800)
T5A50 000:523.023 - 0.008ms returns 0
T5A50 000:523.028 JLINK_WriteReg(R1, 0x00000400)
T5A50 000:523.032 - 0.006ms returns 0
T5A50 000:523.037 JLINK_WriteReg(R2, 0x20000218)
T5A50 000:523.041 - 0.006ms returns 0
T5A50 000:523.046 JLINK_WriteReg(R3, 0x00000000)
T5A50 000:523.050 - 0.006ms returns 0
T5A50 000:523.054 JLINK_WriteReg(R4, 0x00000000)
T5A50 000:523.061 - 0.010ms returns 0
T5A50 000:523.067 JLINK_WriteReg(R5, 0x00000000)
T5A50 000:523.071 - 0.006ms returns 0
T5A50 000:523.076 JLINK_WriteReg(R6, 0x00000000)
T5A50 000:523.080 - 0.006ms returns 0
T5A50 000:523.085 JLINK_WriteReg(R7, 0x00000000)
T5A50 000:523.089 - 0.006ms returns 0
T5A50 000:523.093 JLINK_WriteReg(R8, 0x00000000)
T5A50 000:523.097 - 0.006ms returns 0
T5A50 000:523.102 JLINK_WriteReg(R9, 0x20000200)
T5A50 000:523.106 - 0.006ms returns 0
T5A50 000:523.111 JLINK_WriteReg(R10, 0x00000000)
T5A50 000:523.115 - 0.006ms returns 0
T5A50 000:523.120 JLINK_WriteReg(R11, 0x00000000)
T5A50 000:523.124 - 0.006ms returns 0
T5A50 000:523.128 JLINK_WriteReg(R12, 0x00000000)
T5A50 000:523.132 - 0.006ms returns 0
T5A50 000:523.137 JLINK_WriteReg(R13 (SP), 0x20002000)
T5A50 000:523.141 - 0.006ms returns 0
T5A50 000:523.146 JLINK_WriteReg(R14, 0x20000001)
T5A50 000:523.150 - 0.006ms returns 0
T5A50 000:523.155 JLINK_WriteReg(R15 (PC), 0x2000017E)
T5A50 000:523.161 - 0.011ms returns 0
T5A50 000:523.168 JLINK_WriteReg(XPSR, 0x01000000)
T5A50 000:523.173 - 0.006ms returns 0
T5A50 000:523.177 JLINK_WriteReg(MSP, 0x20002000)
T5A50 000:523.181 - 0.006ms returns 0
T5A50 000:523.186 JLINK_WriteReg(PSP, 0x20002000)
T5A50 000:523.190 - 0.006ms returns 0
T5A50 000:523.195 JLINK_WriteReg(CFBP, 0x00000000)
T5A50 000:523.199 - 0.006ms returns 0
T5A50 000:523.203 JLINK_SetBPEx(Addr = 0x20000000, Type = 0xFFFFFFF2)
T5A50 000:523.208 - 0.007ms returns 0x0000000B
T5A50 000:523.213 JLINK_Go()
T5A50 000:523.223   CPU_ReadMem(4 bytes @ 0xE0001000)
T5A50 000:525.820 - 2.612ms
T5A50 000:525.829 JLINK_IsHalted()
T5A50 000:526.318 - 0.491ms returns FALSE
T5A50 000:526.325 JLINK_HasError()
T5A50 000:528.224 JLINK_IsHalted()
T5A50 000:528.755 - 0.532ms returns FALSE
T5A50 000:528.761 JLINK_HasError()
T5A50 000:530.238 JLINK_IsHalted()
T5A50 000:530.850 - 0.630ms returns FALSE
T5A50 000:530.877 JLINK_HasError()
T5A50 000:533.231 JLINK_IsHalted()
T5A50 000:533.737 - 0.516ms returns FALSE
T5A50 000:533.753 JLINK_HasError()
T5A50 000:537.229 JLINK_IsHalted()
T5A50 000:539.494   CPU_ReadMem(2 bytes @ 0x20000000)
T5A50 000:540.054 - 2.827ms returns TRUE
T5A50 000:540.061 JLINK_ReadReg(R15 (PC))
T5A50 000:540.067 - 0.008ms returns 0x20000000
T5A50 000:540.072 JLINK_ClrBPEx(BPHandle = 0x0000000B)
T5A50 000:540.077 - 0.006ms returns 0x00
T5A50 000:540.082 JLINK_ReadReg(R0)
T5A50 000:540.086 - 0.006ms returns 0x00000000
T5A50 000:540.340 JLINK_WriteMem(0x20000218, 0x1E8 Bytes, ...)
T5A50 000:540.349   Data:  61 69 11 43 E2 69 11 43 19 43 01 60 03 21 09 03 ...
T5A50 000:540.361   CPU_WriteMem(488 bytes @ 0x20000218)
T5A50 000:542.498 - 2.163ms returns 0x1E8
T5A50 000:542.508 JLINK_WriteMem(0x20000400, 0x218 Bytes, ...)
T5A50 000:542.513   Data:  80 F3 10 88 3A 68 93 68 83 43 93 60 81 F3 10 88 ...
T5A50 000:542.522   CPU_WriteMem(536 bytes @ 0x20000400)
T5A50 000:544.780 - 2.279ms returns 0x218
T5A50 000:544.793 JLINK_HasError()
T5A50 000:544.798 JLINK_WriteReg(R0, 0x08001C00)
T5A50 000:544.804 - 0.008ms returns 0
T5A50 000:544.809 JLINK_WriteReg(R1, 0x00000400)
T5A50 000:544.814 - 0.006ms returns 0
T5A50 000:544.818 JLINK_WriteReg(R2, 0x20000218)
T5A50 000:544.822 - 0.006ms returns 0
T5A50 000:544.827 JLINK_WriteReg(R3, 0x00000000)
T5A50 000:544.831 - 0.006ms returns 0
T5A50 000:544.836 JLINK_WriteReg(R4, 0x00000000)
T5A50 000:544.840 - 0.006ms returns 0
T5A50 000:544.844 JLINK_WriteReg(R5, 0x00000000)
T5A50 000:544.848 - 0.006ms returns 0
T5A50 000:544.853 JLINK_WriteReg(R6, 0x00000000)
T5A50 000:544.857 - 0.006ms returns 0
T5A50 000:544.862 JLINK_WriteReg(R7, 0x00000000)
T5A50 000:544.866 - 0.006ms returns 0
T5A50 000:544.870 JLINK_WriteReg(R8, 0x00000000)
T5A50 000:544.874 - 0.006ms returns 0
T5A50 000:544.879 JLINK_WriteReg(R9, 0x20000200)
T5A50 000:544.883 - 0.006ms returns 0
T5A50 000:544.888 JLINK_WriteReg(R10, 0x00000000)
T5A50 000:544.892 - 0.006ms returns 0
T5A50 000:544.896 JLINK_WriteReg(R11, 0x00000000)
T5A50 000:544.900 - 0.008ms returns 0
T5A50 000:544.909 JLINK_WriteReg(R12, 0x00000000)
T5A50 000:544.913 - 0.006ms returns 0
T5A50 000:544.918 JLINK_WriteReg(R13 (SP), 0x20002000)
T5A50 000:544.922 - 0.006ms returns 0
T5A50 000:544.927 JLINK_WriteReg(R14, 0x20000001)
T5A50 000:544.931 - 0.006ms returns 0
T5A50 000:544.936 JLINK_WriteReg(R15 (PC), 0x2000017E)
T5A50 000:544.940 - 0.006ms returns 0
T5A50 000:544.944 JLINK_WriteReg(XPSR, 0x01000000)
T5A50 000:544.949 - 0.006ms returns 0
T5A50 000:544.953 JLINK_WriteReg(MSP, 0x20002000)
T5A50 000:544.957 - 0.006ms returns 0
T5A50 000:544.962 JLINK_WriteReg(PSP, 0x20002000)
T5A50 000:544.966 - 0.006ms returns 0
T5A50 000:544.971 JLINK_WriteReg(CFBP, 0x00000000)
T5A50 000:544.975 - 0.006ms returns 0
T5A50 000:544.979 JLINK_SetBPEx(Addr = 0x20000000, Type = 0xFFFFFFF2)
T5A50 000:544.984 - 0.006ms returns 0x0000000C
T5A50 000:544.989 JLINK_Go()
T5A50 000:544.998   CPU_ReadMem(4 bytes @ 0xE0001000)
T5A50 000:547.705 - 2.742ms
T5A50 000:547.739 JLINK_IsHalted()
T5A50 000:548.253 - 0.534ms returns FALSE
T5A50 000:548.283 JLINK_HasError()
T5A50 000:553.730 JLINK_IsHalted()
T5A50 000:554.224 - 0.497ms returns FALSE
T5A50 000:554.231 JLINK_HasError()
T5A50 000:556.725 JLINK_IsHalted()
T5A50 000:557.242 - 0.519ms returns FALSE
T5A50 000:557.248 JLINK_HasError()
T5A50 000:558.722 JLINK_IsHalted()
T5A50 000:560.989   CPU_ReadMem(2 bytes @ 0x20000000)
T5A50 000:561.499 - 2.779ms returns TRUE
T5A50 000:561.506 JLINK_ReadReg(R15 (PC))
T5A50 000:561.512 - 0.007ms returns 0x20000000
T5A50 000:561.517 JLINK_ClrBPEx(BPHandle = 0x0000000C)
T5A50 000:561.521 - 0.006ms returns 0x00
T5A50 000:561.526 JLINK_ReadReg(R0)
T5A50 000:561.531 - 0.006ms returns 0x00000000
T5A50 000:561.829 JLINK_WriteMem(0x20000218, 0x1E8 Bytes, ...)
T5A50 000:561.838   Data:  01 95 A0 48 02 90 A0 48 39 46 22 46 2B 46 FE F7 ...
